# GHz S MA R 50

2.291000000000000e+00  8.8876033940317645e-01  1.5169970937076801e+02  2.7586777118510493e-02 -2.6515660447454998e+01  2.7586777118510493e-02 -2.6515660447454998e+01  8.8489790317888384e-01  1.5791791404184696e+02
2.291300000000000e+00  8.8815131927912061e-01  1.5154115654027203e+02  2.7157489661786993e-02 -2.6640978059567452e+01  2.7157489661786993e-02 -2.6640978059567452e+01  8.8420783212173359e-01  1.5776217170009380e+02
2.291600000000000e+00  8.8750629050883356e-01  1.5138338977485691e+02  2.6725326971769103e-02 -2.6740617434458894e+01  2.6725326971769103e-02 -2.6740617434458894e+01  8.8348198948583445e-01  1.5760735752148477e+02
2.291900000000000e+00  8.8682700257818003e-01  1.5122647730053495e+02  2.6290915193743828e-02 -2.6813713732202192e+01  2.6290915193743828e-02 -2.6813713732202192e+01  8.8272222759153285e-01  1.5745353514359769e+02
2.292200000000000e+00  8.8611519254047744e-01  1.5107048902557548e+02  2.5854898747297420e-02 -2.6859321475777453e+01  2.5854898747297420e-02 -2.6859321475777453e+01  8.8193038772851307e-01  1.5730076998663685e+02
2.292500000000000e+00  8.8537258504566319e-01  1.5091549654984240e+02  2.5417940929003031e-02 -2.6876413799849743e+01  2.5417940929003031e-02 -2.6876413799849743e+01  8.8110830019316511e-01  1.5714912925879833e+02
2.292800000000000e+00  8.8460089238863160e-01  1.5076157317248928e+02  2.4980724629366135e-02 -2.6863882271773665e+01  2.4980724629366135e-02 -2.6863882271773665e+01  8.8025778434437174e-01  1.5699868196002993e+02
2.293100000000000e+00  8.8380181457772433e-01  1.5060879389792967e+02  2.4543953160763615e-02 -2.6820537463171430e+01  2.4543953160763615e-02 -2.6820537463171430e+01  8.7938064867866961e-01  1.5684949888407905e+02
2.293400000000000e+00  8.8297703942438222e-01  1.5045723543999830e+02  2.4108351190992115e-02 -2.6745110483500749e+01  2.4108351190992115e-02 -2.6745110483500749e+01  8.7847869092575592e-01  1.5670165261871975e+02
2.293700000000000e+00  8.8212824265497214e-01  1.5030697622421593e+02  2.3674665774214843e-02 -2.6636255723982675e+01  2.3674665774214843e-02 -2.6636255723982675e+01  8.7755369816531836e-01  1.5655521754404842e+02
2.294000000000000e+00  8.8125708804581171e-01  1.5015809638807070e+02  2.3243667467431325e-02 -2.6492555100798501e+01  2.3243667467431325e-02 -2.6492555100798501e+01  8.7660744696617943e-01  1.5641026982873652e+02
2.294300000000000e+00  8.8036522758242697e-01  1.5001067777922651e+02  2.2816151515949363e-02 -2.6312524129899217e+01  2.2816151515949363e-02 -2.6312524129899217e+01  8.7564170354875137e-01  1.5626688742412679e+02
2.294600000000000e+00  8.7945430164407890e-01  1.4986480395156758e+02  2.2392939085565586e-02 -2.6094620210858217e+01  2.2392939085565586e-02 -2.6094620210858217e+01  8.7465822397179926e-01  1.5612515005605857e+02
2.294900000000000e+00  8.7852593921459810e-01  1.4972056015898673e+02  2.1974878512120884e-02 -2.5837253541958223e+01  2.1974878512120884e-02 -2.5837253541958223e+01  8.7365875434451601e-01  1.5598513921430552e+02
2.295200000000000e+00  8.7758175812056782e-01  1.4957803334682424e+02  2.1562846530670404e-02 -2.5538801130190699e+01  2.1562846530670404e-02 -2.5538801130190699e+01  8.7264503106490532e-01  1.5584693813950932e+02
2.295500000000000e+00  8.7662336529789109e-01  1.4943731214086202e+02  2.1157749436620792e-02 -2.5197624393903023e+01  2.1157749436620792e-02 -2.5197624393903023e+01  8.7161878108546786e-01  1.5571063180749047e+02
2.295800000000000e+00  8.7565235708777023e-01  1.4929848683377745e+02  2.0760524119838992e-02 -2.4812090876828876e+01  2.0760524119838992e-02 -2.4812090876828876e+01  8.7058172220717345e-01  1.5557630691081656e+02
2.296100000000000e+00  8.7467031956311869e-01  1.4916164936895882e+02  2.0372138900043683e-02 -2.4380600592861072e+01  2.0372138900043683e-02 -2.4380600592861072e+01  8.6953556340269156e-01  1.5544405183750808e+02
2.296400000000000e+00  8.7367882888641080e-01  1.4902689332158448e+02  1.9993594078030849e-02 -2.3901617492021323e+01  1.9993594078030849e-02 -2.3901617492021323e+01  8.6848200516983509e-01  1.5531395664676035e+02
2.296700000000000e+00  8.7267945169995575e-01  1.4889431387686619e+02  1.9625922102965401e-02 -2.3373706468689342e+01  1.9625922102965401e-02 -2.3373706468689342e+01  8.6742273991615049e-01  1.5518611304155911e+02
2.297000000000000e+00  8.7167374554956378e-01  1.4876400780535513e+02  1.9270187241884708e-02 -2.2795576210823519e+01  1.9270187241884708e-02 -2.2795576210823519e+01  8.6635945237556455e-01  1.5506061433806872e+02
2.297300000000000e+00  8.7066342947013053e-01  1.4863605172367497e+02  1.8927428885913304e-02 -2.2166420177019873e+01  1.8927428885913304e-02 -2.2166420177019873e+01  8.6529397352525317e-01  1.5493753236215593e+02
2.297600000000000e+00  8.6965090064150341e-01  1.4851043692358229e+02  1.8598483477611533e-02 -2.1486872551756829e+01  1.8598483477611533e-02 -2.1486872551756829e+01  8.6422874733501753e-01  1.5481684814756133e+02
2.297900000000000e+00  8.6863873424878790e-01  1.4838713445219409e+02  1.8284131049222968e-02 -2.0758225963037880e+01  1.8284131049222968e-02 -2.0758225963037880e+01  8.6316638071818386e-01  1.5469852099725091e+02
2.298200000000000e+00  8.6762951450834802e-01  1.4826611676442647e+02  1.7985140876507384e-02 -1.9982187451089001e+01  1.7985140876507384e-02 -1.9982187451089001e+01  8.6210949117212832e-01  1.5458251147930750e+02
2.298500000000000e+00  8.6662583434869278e-01  1.4814735766484569e+02  1.7702262791758114e-02 -1.9160916552952401e+01  1.7702262791758114e-02 -1.9160916552952401e+01  8.6106070639102372e-01  1.5446878136767290e+02
2.298800000000000e+00  8.6563029510676026e-01  1.4803083225032512e+02  1.7436217947389983e-02 -1.8297058378415201e+01  1.7436217947389983e-02 -1.8297058378415201e+01  8.6002266389560089e-01  1.5435729358431908e+02
2.299100000000000e+00  8.6464550623885517e-01  1.4791651685340344e+02  1.7187689177501159e-02 -1.7393769525058293e+01  1.7187689177501159e-02 -1.7393769525058293e+01  8.5899801067905690e-01  1.5424801214277349e+02
2.299400000000000e+00  8.6367408504553622e-01  1.4780438898624527e+02  1.6957311156652447e-02 -1.6454734619288626e+01  1.6957311156652447e-02 -1.6454734619288626e+01  8.5798940286829617e-01  1.5414090209293073e+02
2.299700000000000e+00  8.6271865640978440e-01  1.4769442728511271e+02  1.6745660606385899e-02 -1.5484171355696237e+01  1.6745660606385899e-02 -1.5484171355696237e+01  8.5699950539972347e-01  1.5403592946708824e+02
2.300000000000000e+00  8.6178185254781370e-01  1.4758661145526278e+02  1.6553246846362613e-02 -1.4486822167685553e+01  1.6553246846362613e-02 -1.4486822167685553e+01  8.5603099170885577e-01  1.5393306122715069e+02
2.300300000000000e+00  8.6086612388458250e-01  1.4748090359019886e+02  1.6380404343677709e-02 -1.3467859811226578e+01  1.6380404343677709e-02 -1.3467859811226578e+01  8.5508633221756702e-01  1.5383224676424339e+02
2.300600000000000e+00  8.5997317621854996e-01  1.4737719190272662e+02  1.6226992009906637e-02 -1.2432579145372983e+01  1.6226992009906637e-02 -1.2432579145372983e+01  8.5416716420428562e-01  1.5373336214801989e+02
2.300900000000000e+00  8.5910454401580483e-01  1.4727534598575778e+02  1.6092689254319476e-02 -1.1386457701928014e+01  1.6092689254319476e-02 -1.1386457701928014e+01  8.5327493159997403e-01  1.5363626483189259e+02
2.301200000000000e+00  8.5826177960986472e-01  1.4717523535694542e+02  1.5977092760874625e-02 -1.0335144589771433e+01  1.5977092760874625e-02 -1.0335144589771433e+01  8.5241109643079460e-01  1.5354081202583220e+02
2.301500000000000e+00  8.5744645252138041e-01  1.4707672946839492e+02  1.5879715615454683e-02 -9.2843865927191480e+00  1.5879715615454683e-02 -9.2843865927191480e+00  8.5157713812427771e-01  1.5344686071648613e+02
2.301800000000000e+00  8.5666014882634822e-01  1.4697969772070729e+02  1.5799988167687889e-02 -8.2399520055294548e+00  1.5799988167687889e-02 -8.2399520055294548e+00  8.5077455287173964e-01  1.5335426769197838e+02
2.302100000000000e+00  8.5590447057249530e-01  1.4688400948148433e+02  1.5737260606126874e-02 -7.2075550953897727e+00  1.5737260606126874e-02 -7.2075550953897727e+00  8.5000485304677120e-01  1.5326288957153346e+02
2.302400000000000e+00  8.5518103524350719e-01  1.4678953410841325e+02  1.5690807157153840e-02 -6.1927840446371709e+00  1.5690807157153840e-02 -6.1927840446371709e+00  8.4926956667960340e-01  1.5317258284005467e+02
2.302700000000000e+00  8.5449147527076641e-01  1.4669614097703916e+02  1.5659831756081495e-02 -5.2010350036464539e+00  1.5659831756081495e-02 -5.2010350036464539e+00  8.4857023698714462e-01  1.5308320388777443e+02
2.303000000000000e+00  8.5383743759226682e-01  1.4660369951332248e+02  1.5643474988066442e-02 -4.2374544854297218e+00  1.5643474988066442e-02 -4.2374544854297218e+00  8.4790842195846194e-01  1.5299460905508130e+02
2.303300000000000e+00  8.5322030527092174e-01  1.4651207564416580e+02  1.5640790792955848e-02 -3.3066011843046228e+00  1.5640790792955848e-02 -3.3066011843046228e+00  8.4728540578311318e-01  1.5290665204588916e+02
2.303600000000000e+00  8.5264036386552011e-01  1.4642112082243460e+02  1.5650671341648881e-02 -2.4115251771096502e+00  1.5650671341648881e-02 -2.4115251771096502e+00  8.4670133438858053e-01  1.5281917582021129e+02
2.303900000000000e+00  8.5209763628826019e-01  1.4633068239420612e+02  1.5671966161109354e-02 -1.5546029193472131e+00  1.5671966161109354e-02 -1.5546029193472131e+00  8.4615608067722348e-01  1.5273202012857115e+02
2.304200000000000e+00  8.5159216072503130e-01  1.4624060718906622e+02  1.5703522287008994e-02 -7.3783074533169157e-01  1.5703522287008994e-02 -7.3783074533169157e-01  8.4564953269385601e-01  1.5264502416080239e+02
2.304500000000000e+00  8.5112399045854070e-01  1.4615074158932237e+02  1.5744190009645265e-02  3.7160120956689732e-02  1.5744190009645265e-02  3.7160120956689732e-02  8.4518159352838196e-01  1.5255802662224372e+02
2.304800000000000e+00  8.5069319375228836e-01  1.4606093159983416e+02  1.5792828008404369e-02  7.6908214492345417e-01  1.5792828008404369e-02  7.6908214492345417e-01  8.4475218128506269e-01  1.5247086581011087e+02
2.305100000000000e+00  8.5029985379571515e-01  1.4597102291849643e+02  1.5848307831499851e-02  1.4569651121557592e+00  1.5848307831499851e-02  1.4569651121557592e+00  8.4436122911878875e-01  1.5238337969007210e+02
2.305400000000000e+00  8.4994406871077133e-01  1.4588086100740779e+02  1.5909517708146137e-02  2.1001262199518651e+00  1.5909517708146137e-02  2.1001262199518651e+00  8.4400868533863171e-01  1.5229540597305393e+02
2.305700000000000e+00  8.4962595162006327e-01  1.4579029116475778e+02  1.5975365706051139e-02  2.6981379217286556e+00  1.5975365706051139e-02  2.6981379217286556e+00  8.4369451357885739e-01  1.5220678219230521e+02
2.306000000000000e+00  8.4934563077665570e-01  1.4569915859746339e+02  1.6044782267645656e-02  3.2507946566504895e+00  1.6044782267645656e-02  3.2507946566504895e+00  8.4341869303749084e-01  1.5211734578075010e+02
2.306300000000000e+00  8.4910306307539118e-01  1.4560731565361061e+02  1.6116755488039886e-02  3.7582824710662504e+00  1.6116755488039886e-02  3.7582824710662504e+00  8.4318102927627214e-01  1.5202694220168718e+02
2.306600000000000e+00  8.4889747289427675e-01  1.4551464322442516e+02  1.6190436190014649e-02  4.2217402962984742e+00  1.6190436190014649e-02  4.2217402962984742e+00  8.4298058456326530e-01  1.5193544903648515e+02
2.306900000000000e+00  8.4872791001386183e-01  1.4542102906593985e+02  1.6265044200101313e-02  4.6425951115247557e+00  1.6265044200101313e-02  4.6425951115247557e+00  8.4281624412874256e-01  1.5184275162449461e+02
2.307200000000000e+00  8.4859343623993755e-01  1.4532636064531087e+02  1.6339834080350692e-02  5.0223306736302256e+00  1.6339834080350692e-02  5.0223306736302256e+00  8.4268690566478066e-01  1.5174873501199971e+02
2.307500000000000e+00  8.4849312571951119e-01  1.4523052517985647e+02  1.6414092973253618e-02  5.3624662143979087e+00  1.6414092973253618e-02  5.3624662143979087e+00  8.4259147972692960e-01  1.5165328398713086e+02
2.307800000000000e+00  8.4842606529065845e-01  1.4513340967404952e+02  1.6487138367288282e-02  5.6645379233759501e+00  1.6487138367288282e-02  5.6645379233759501e+00  8.4252889017146748e-01  1.5155628311228097e+02
2.308100000000000e+00  8.4839135486647155e-01  1.4503490095448288e+02  1.6558315832588738e-02  5.9300830196991567e+00  1.6558315832588738e-02  5.9300830196991567e+00  8.4249807462849202e-01  1.5145761675405305e+02
2.308400000000000e+00  8.4838810785329555e-01  1.4493488570283722e+02  1.6626996767239791e-02  6.1606261888091467e+00  1.6626996767239791e-02  6.1606261888091467e+00  8.4249798501109374e-01  1.5135716911077833e+02
2.308700000000000e+00  8.4841545160342557e-01  1.4483325048688539e+02  1.6692576186598706e-02  6.3576681469298091e+00  1.6692576186598706e-02  6.3576681469298091e+00  8.4252758806083561e-01  1.5125482423765078e+02
2.309000000000000e+00  8.4847252790242045e-01  1.4472988178957721e+02  1.6754470580895915e-02  6.5226760938009329e+00  1.6754470580895915e-02  6.5226760938009329e+00  8.4258586592975937e-01  1.5115046606953382e+02
2.309300000000000e+00  8.4855849532005512e-01  1.4462467623988795e+02  1.6812160970997643e-02  6.6570873395016807e+00  1.6812160970997643e-02  6.6570873395016807e+00  8.4267183084922748e-01  1.5104398847427595e+02
2.309600000000000e+00  8.4867253299323342e-01  1.4451757123985820e+02  1.6865326336004752e-02  6.7623348607085036e+00  1.6865326336004752e-02  6.7623348607085036e+00  8.4278456569622329e-01  1.5093532537300035e+02
2.309900000000000e+00  8.4881383163155011e-01  1.4440851435142076e+02  1.6913706476903458e-02  6.8398051984585617e+00  1.6913706476903458e-02  6.8398051984585617e+00  8.4292317845500653e-01  1.5082442065609078e+02
2.310200000000000e+00  8.4898159143331675e-01  1.4429745309242637e+02  1.6957055103400152e-02  6.8908263580425588e+00  1.6957055103400152e-02  6.8908263580425588e+00  8.4308678798207637e-01  1.5071121814871708e+02
2.310500000000000e+00  8.4917502238956266e-01  1.4418433493683472e+02  1.6995138147529405e-02  6.9166685174730906e+00  1.6995138147529405e-02  6.9166685174730906e+00  8.4327452437470196e-01  1.5059566160651246e+02
2.310800000000000e+00  8.4939334459713245e-01  1.4406910731426134e+02  1.7027732205300808e-02  6.9185450369485268e+00  1.7027732205300808e-02  6.9185450369485268e+00  8.4348552935020593e-01  1.5047769471053351e+02
2.311100000000000e+00  8.4963578858098732e-01  1.4395171760891125e+02  1.7054623099777951e-02  6.8976136887989723e+00  1.7054623099777951e-02  6.8976136887989723e+00  8.4371895663616470e-01  1.5035726106154402e+02
2.311400000000000e+00  8.4990159562582568e-01  1.4383211315793056e+02  1.7075604558791285e-02  6.8549780408039469e+00  1.7075604558791285e-02  6.8549780408039469e+00  8.4397397237170291e-01  1.5023430417366370e+02
2.311700000000000e+00  8.5019001811714168e-01  1.4371024124920916e+02  1.7090477000457929e-02  6.7916889371969331e+00  1.7090477000457929e-02  6.7916889371969331e+00  8.4424975552005743e-01  1.5010876746742679e+02
2.312000000000000e+00  8.5050031989184061e-01  1.4358604911866976e+02  1.7099046419775266e-02  6.7087460313226392e+00  1.7099046419775266e-02  6.7087460313226392e+00  8.4454549829260561e-01  1.4998059426229491e+02
2.312300000000000e+00  8.5083167153358974e-01  1.4345947320831328e+02  1.7101116509357701e-02  6.6071484610446829e+00  1.7101116509357701e-02  6.6071484610446829e+00  8.4486023569250190e-01  1.4984971738152467e+02
2.312600000000000e+00  8.5118283842316378e-01  1.4333040685457945e+02  1.7096466903539442e-02  6.4880434872627095e+00  1.7096466903539442e-02  6.4880434872627095e+00  8.4519233614808242e-01  1.4971602779903617e+02
2.312900000000000e+00  8.5155250155082474e-01  1.4319873233995122e+02  1.7084872369853853e-02  6.3525804533388985e+00  1.7084872369853853e-02  6.3525804533388985e+00  8.4554001989040217e-01  1.4957940546328203e+02
2.313200000000000e+00  8.5193936414242522e-01  1.4306433160285295e+02  1.7066108612233375e-02  6.2018637949437938e+00  1.7066108612233375e-02  6.2018637949437938e+00  8.4590153154428749e-01  1.4943972961063645e+02
2.313500000000000e+00  8.5234215256644708e-01  1.4292708622924337e+02  1.7039951361984711e-02  6.0369553068300785e+00  1.7039951361984711e-02  6.0369553068300785e+00  8.4627514118551861e-01  1.4929687873309450e+02
2.313800000000000e+00  8.5275961728455230e-01  1.4278687744181718e+02  1.7006175562456070e-02  5.8588764227492192e+00  1.7006175562456070e-02  5.8588764227492192e+00  8.4665914544822629e-01  1.4915073054253318e+02
2.314100000000000e+00  8.5319053384635424e-01  1.4264358608695872e+02  1.6964554640613798e-02  5.6686105033763523e+00  1.6964554640613798e-02  5.6686105033763523e+00  8.4705186868385118e-01  1.4900116193168060e+02
2.314400000000000e+00  8.5363370392914961e-01  1.4249709261959941e+02  1.6914859859159470e-02  5.4671051316764085e+00  1.6914859859159470e-02  5.4671051316764085e+00  8.4745166417309814e-01  1.4884804893194570e+02
2.314700000000000e+00  8.5408795642338098e-01  1.4234727708613880e+02  1.6856859743223943e-02  5.2552744192626459e+00  1.6856859743223943e-02  5.2552744192626459e+00  8.4785691539238683e-01  1.4869126666827088e+02
2.315000000000000e+00  8.5455214856463624e-01  1.4219401910559844e+02  1.6790319576068427e-02  5.0340013311261638e+00  1.6790319576068427e-02  5.0340013311261638e+00  8.4826603733638339e-01  1.4853068931117667e+02
2.315300000000000e+00  8.5502551781998659e-01  1.4203722043587112e+02  1.6715051371432390e-02  4.8039023196545259e+00  1.6715051371432390e-02  4.8039023196545259e+00  8.4867792935369912e-01  1.4836620985184209e+02
2.315600000000000e+00  8.5550872767541364e-01  1.4187687313555080e+02  1.6631067036040423e-02  4.5646127376892585e+00  1.6631067036040423e-02  4.5646127376892585e+00  8.4909332402915982e-01  1.4819780016472086e+02
2.315900000000000e+00  8.5600280289944874e-01  1.4171299254984103e+02  1.6538431087675973e-02  4.3154929548316066e+00  1.6538431087675973e-02  4.3154929548316066e+00  8.4951342153020171e-01  1.4802545264290143e+02
2.316200000000000e+00  8.5650877684679516e-01  1.4154559486449523e+02  1.6437211057211618e-02  4.0558614903951486e+00  1.6437211057211618e-02  4.0558614903951486e+00  8.4993943652576376e-01  1.4784916058173272e+02
2.316500000000000e+00  8.5702769127822187e-01  1.4137469714323086e+02  1.6327477786936207e-02  3.7849906996018574e+00  1.6327477786936207e-02  3.7849906996018574e+00  8.5037259820681155e-01  1.4766891823457672e+02
2.316800000000000e+00  8.5756059617062819e-01  1.4120031736472416e+02  1.6209305764366889e-02  3.5021020253491510e+00  1.6209305764366889e-02  3.5021020253491510e+00  8.5081415029362673e-01  1.4748472086917187e+02
2.317100000000000e+00  8.5810854951702542e-01  1.4102247445912070e+02  1.6082773496294878e-02  3.2063607586629073e+00  1.6082773496294878e-02  3.2063607586629073e+00  8.5126535102917544e-01  1.4729656482454567e+02
2.317400000000000e+00  8.5867261711619736e-01  1.4084118834399581e+02  1.5947963928546020e-02  2.8968702437137490e+00  1.5947963928546020e-02  2.8968702437137490e+00  8.5172747315786523e-01  1.4710444756841025e+02
2.317700000000000e+00  8.5925387235181605e-01  1.4065647995969468e+02  1.5804964917791868e-02  2.5726654550119590e+00  1.5804964917791868e-02  2.5726654550119590e+00  8.5220180388899491e-01  1.4690836775496538e+02
2.318000000000000e+00  8.5985339596081456e-01  1.4046837130398012e+02  1.5653869762746936e-02  2.2327058649917744e+00  1.5653869762746936e-02  2.2327058649917744e+00  8.5268964484421172e-01  1.4670832528302915e+02
2.318300000000000e+00  8.6046948555897695e-01  1.4027669661319922e+02  1.5494403654286604e-02  1.8776274623947067e+00  1.5494403654286604e-02  1.8776274623947067e+00  8.5318859527353996e-01  1.4650415476366362e+02
2.318600000000000e+00  8.6108936224182375e-01  1.4008053188274167e+02  1.5324777463517136e-02  1.5150960772118343e+00  1.5324777463517136e-02  1.5150960772118343e+00  8.5368147425673691e-01  1.4629501934135581e+02
